VDS,VGS,VBS,IDS,IB,IGS
0.05,0.0,0,-2.897743e-09,1.887555e-08,-3.937128e-12
0.05,0.1,0,-1.45324e-08,1.377698e-08,5.491438e-11
0.05,0.2,0,-1.231913e-08,1.372775e-08,1.827421e-10
0.05,0.3,0,1.76696e-08,5.816617e-09,2.770335e-11
0.05,0.4,0,1.500387e-07,1.240393e-08,1.226251e-10
0.05,0.5,0,6.681567e-07,1.256497e-08,2.580487e-11
0.05,0.6,0,1.613274e-06,1.88438e-08,1.327499e-10
0.05,0.7,0,2.716692e-06,1.758404e-08,5.364857e-11
0.05,0.8,0,3.840002e-06,6.489011e-09,-2.735124e-11
0.05,0.9,0,4.933596e-06,9.307653e-09,6.105219e-10
0.05,1.0,0,5.95852e-06,7.695575e-09,1.894493e-09
0.05,1.1,0,6.971183e-06,1.386057e-08,5.934375e-11
0.05,1.2,0,7.934244e-06,1.85857e-08,2.390635e-11
0.05,1.3,0,8.862327e-06,7.932988e-09,3.403122e-11
0.05,1.4,0,9.692053e-06,5.683991e-09,4.991465e-10
0.05,1.5,0,1.044724e-05,4.571203e-09,5.681229e-11
0.05,1.6,0,1.115011e-05,1.174172e-08,3.339834e-11
0.05,1.7,0,1.174326e-05,1.318219e-08,1.852725e-10
0.05,1.8,0,1.230548e-05,1.278114e-08,-5.646058e-11
0.9,0.0,0,3.077354e-10,4.823349e-09,5.997694e-11
0.9,0.1,0,3.873354e-10,3.294289e-09,1.378126e-10
0.9,0.2,0,2.393645e-09,5.200251e-09,3.276591e-11
0.9,0.3,0,2.827114e-08,4.808429e-09,-2.798403e-11
0.9,0.4,0,2.310417e-07,2.002329e-09,6.757048e-11
0.9,0.5,0,1.135616e-06,3.903748e-09,3.023665e-12
0.9,0.6,0,3.480547e-06,4.358108e-09,6.12423e-11
0.9,0.7,0,7.552724e-06,4.27009e-09,2.010958e-11
0.9,0.8,0,1.340368e-05,7.09059e-09,-7.101512e-11
0.9,0.9,0,2.097823e-05,8.694534e-09,3.782821e-11
0.9,1.0,0,3.014003e-05,7.930499e-09,6.693741e-11
0.9,1.1,0,4.075466e-05,2.510139e-09,2.093196e-10
0.9,1.2,0,5.264211e-05,2.332439e-09,-7.101519e-11
0.9,1.3,0,6.562899e-05,1.385124e-09,7.199974e-11
0.9,1.4,0,7.948148e-05,4.146097e-09,1.194604e-10
0.9,1.5,0,9.398726e-05,4.433128e-09,6.314042e-11
0.9,1.6,0,0.0001087402,6.043355e-09,7.45308e-12
0.9,1.7,0,0.0001233151,3.275465e-09,1.734389e-09
0.9,1.8,0,0.0001373758,2.963408e-09,-2.80794e-09
1.8,0.0,0,4.368121e-10,1.07761e-09,-1.083509e-10
1.8,0.1,0,7.905941e-10,4.889665e-09,5.238308e-11
1.8,0.2,0,2.317742e-09,3.471408e-09,1.512279e-09
1.8,0.3,0,2.854039e-08,1.667866e-09,2.453943e-11
1.8,0.4,0,2.315222e-07,2.004442e-09,1.631249e-10
1.8,0.5,0,1.15509e-06,2.387939e-09,7.326585e-11
1.8,0.6,0,3.522953e-06,1.93774e-09,1.38445e-10
1.8,0.7,0,7.665252e-06,2.371807e-09,6.567165e-10
1.8,0.8,0,1.362363e-05,3.515322e-09,-1.963122e-10
1.8,0.9,0,2.132351e-05,2.577287e-09,9.414806e-11
1.8,1.0,0,3.064892e-05,3.432428e-09,3.725846e-10
1.8,1.1,0,4.147095e-05,3.469871e-09,-1.691011e-10
1.8,1.2,0,5.360833e-05,3.948492e-09,1.107277e-09
1.8,1.3,0,6.690523e-05,3.846839e-09,1.795776e-10
1.8,1.4,0,8.121503e-05,5.092968e-09,5.493282e-09
1.8,1.5,0,9.634464e-05,1.685468e-09,1.791975e-09
1.8,1.6,0,0.0001121324,2.845818e-09,-2.444061e-10
1.8,1.7,0,0.0001284537,3.920194e-09,5.048423e-11
1.8,1.8,0,0.0001451982,4.41591e-09,3.276545e-09
0.05,0.0,0.1,-1.023633e-08,1.810946e-08,4.668772e-11
0.05,0.1,0.1,-1.087731e-08,1.506984e-08,-7.797599e-11
0.05,0.2,0.1,-1.077849e-08,1.62778e-08,1.688202e-10
0.05,0.3,0.1,2.950145e-08,2.510341e-08,-3.019926e-10
0.05,0.4,0.1,2.495172e-07,1.624771e-08,2.650077e-10
0.05,0.5,0.1,9.229954e-07,1.790398e-08,1.260419e-09
0.05,0.6,0.1,1.95406e-06,4.539704e-09,5.49141e-11
0.05,0.7,0.1,3.082929e-06,5.395682e-09,-5.576505e-10
0.05,0.8,0.1,4.219666e-06,1.800607e-08,1.428746e-10
0.05,0.9,0.1,5.29783e-06,1.602067e-08,4.618111e-10
0.05,1.0,0.1,6.369984e-06,1.74315e-08,-4.17165e-10
0.05,1.1,0.1,7.323094e-06,2.623438e-08,-5.671424e-10
0.05,1.2,0.1,8.336742e-06,4.791276e-09,-2.583282e-10
0.05,1.3,0.1,9.176591e-06,1.412111e-08,-5.519494e-11
0.05,1.4,0.1,9.973577e-06,1.519428e-08,-1.735308e-10
0.05,1.5,0.1,1.075933e-05,1.366547e-08,-3.348986e-10
0.05,1.6,0.1,1.146134e-05,2.323369e-08,2.374413e-08
0.05,1.7,0.1,1.209457e-05,2.205822e-08,-1.108822e-10
0.05,1.8,0.1,1.263072e-05,1.447069e-08,-5.171492e-10
0.9,0.0,0.1,5.679451e-10,1.295347e-08,2.029922e-10
0.9,0.1,0.1,1.334816e-09,7.238197e-09,-1.026522e-11
0.9,0.2,0.1,4.516418e-09,1.256178e-08,9.161726e-11
0.9,0.3,0.1,5.379123e-08,5.683474e-09,-3.348991e-10
0.9,0.4,0.1,3.935042e-07,7.59789e-09,1.232579e-10
0.9,0.5,0.1,1.689287e-06,7.895991e-09,6.250797e-11
0.9,0.6,0.1,4.514102e-06,6.163506e-09,2.390647e-11
0.9,0.7,0.1,9.143781e-06,9.048716e-09,-5.79799e-10
0.9,0.8,0.1,1.552184e-05,5.908728e-09,5.491409e-11
0.9,0.9,0.1,2.35849e-05,8.147363e-09,-1.133513e-09
0.9,1.0,0.1,3.319738e-05,1.04625e-08,9.984355e-11
0.9,1.1,0.1,4.421072e-05,2.809968e-09,-6.601659e-10
0.9,1.2,0.1,5.643596e-05,4.644428e-09,3.738502e-10
0.9,1.3,0.1,6.975081e-05,5.638415e-09,2.453912e-11
0.9,1.4,0.1,8.388688e-05,1.055442e-08,2.941161e-10
0.9,1.5,0.1,9.855921e-05,1.538049e-09,1.63757e-10
0.9,1.6,0.1,0.0001134443,2.369184e-09,-1.165775e-10
0.9,1.7,0.1,0.0001280491,5.005652e-09,5.55466e-11
0.9,1.8,0.1,0.000142084,6.084387e-09,3.012031e-09
1.8,0.0,0.1,9.212859e-10,8.684498e-09,9.984777e-12
1.8,0.1,0.1,1.181355e-09,7.443937e-09,-6.025729e-11
1.8,0.2,0.1,5.406495e-09,7.729948e-09,1.567997e-11
1.8,0.3,0.1,5.442775e-08,1.315511e-08,3.150034e-11
1.8,0.4,0.1,4.037997e-07,6.327312e-09,5.617991e-11
1.8,0.5,0.1,1.7115e-06,4.720097e-09,4.352345e-11
1.8,0.6,0.1,4.605932e-06,7.189486e-10,1.897028e-10
1.8,0.7,0.1,9.292147e-06,5.150899e-09,-3.753992e-10
1.8,0.8,0.1,1.576649e-05,9.409049e-09,-1.570776e-10
1.8,0.9,0.1,2.397088e-05,9.204717e-09,2.64375e-11
1.8,1.0,0.1,3.375866e-05,9.649465e-10,1.11234e-10
1.8,1.1,0.1,4.499122e-05,5.127594e-09,1.264215e-10
1.8,1.2,0.1,5.750439e-05,5.054301e-09,-4.570277e-11
1.8,1.3,0.1,7.115513e-05,6.256388e-09,-8.607687e-10
1.8,1.4,0.1,8.574289e-05,7.136619e-09,2.023585e-10
1.8,1.5,0.1,0.000101109,3.523962e-09,-4.184305e-10
1.8,1.6,0.1,0.0001171575,5.254661e-09,-7.734313e-12
1.8,1.7,0.1,0.0001336704,6.554742e-09,7.13669e-11
1.8,1.8,0.1,0.0001506075,5.847925e-09,-9.759323e-11
